! fhx13x.s2p  12/96
! FHX13X/14X
! @2V-10mA
! .1GHz 26GHz 53
! S-parameters and Noise parameters include bonding wires
! gate  : total 2 wires, 1 per bond pad, 0.3mm long each wire.
! drain : total 2 wires, 1 per bond pad, 0.3mm long each wire.
! source: total 4 wires, 1 per side, 0.3mm long each wire.
! wire  : 20u dia., gold.
# GHZ S MA R 50
.100 1.000 -0.9 4.899 179.2 0.001 89.5 0.601 -0.5
.500 0.999 -4.7 4.894 175.9 0.006 87.7 0.601 -2.3
1.000 0.995 -9.4 4.876 171.9 0.013 85.5 0.599 -4.6
1.500 0.989 -14.0 4.846 167.9 0.019 83.3 0.596 -6.9
2.000 0.981 -18.6 4.806 163.9 0.025 81.1 0.591 -9.2
2.500 0.970 -23.2 4.755 160.0 0.031 79.0 0.586 -11.4
3.000 0.958 -27.7 4.696 156.1 0.037 77.0 0.580 -13.5
3.500 0.944 -32.1 4.629 152.3 0.042 75.1 0.573 -15.6
4.000 0.929 -36.4 4.555 148.6 0.048 73.2 0.565 -17.7
4.500 0.913 -40.7 4.475 145.0 0.053 71.4 0.557 -19.6
5.000 0.895 -44.9 4.392 141.5 0.057 69.8 0.548 -21.5
5.500 0.878 -49.0 4.305 138.1 0.062 68.2 0.540 -23.3
6.000 0.860 -53.0 4.215 134.8 0.066 66.8 0.530 -25.0
6.500 0.841 -56.9 4.125 131.6 0.070 65.4 0.521 -26.7
7.000 0.823 -60.7 4.034 128.4 0.074 64.2 0.512 -28.3
7.500 0.804 -64.5 3.942 125.4 0.077 63.0 0.502 -29.8
8.000 0.786 -68.1 3.852 122.4 0.080 62.0 0.493 -31.3
8.500 0.768 -71.7 3.763 119.6 0.083 61.1 0.484 -32.7
9.000 0.751 -75.3 3.675 116.8 0.086 60.2 0.475 -34.0
9.500 0.734 -78.7 3.589 114.1 0.089 59.5 0.466 -35.3
10.000 0.718 -82.1 3.506 111.5 0.092 58.9 0.458 -36.6
10.500 0.702 -85.4 3.424 109.0 0.094 58.3 0.450 -37.8
11.000 0.687 -88.7 3.345 106.5 0.096 57.8 0.442 -39.0
11.500 0.673 -91.9 3.268 104.1 0.098 57.4 0.434 -40.2
12.000 0.659 -95.0 3.194 101.8 0.101 57.1 0.426 -41.3
12.500 0.646 -98.1 3.123 99.5 0.103 56.8 0.419 -42.5
13.000 0.633 -101.2 3.054 97.3 0.105 56.6 0.412 -43.6
13.500 0.621 -104.2 2.987 95.1 0.106 56.5 0.405 -44.7
14.000 0.610 -107.2 2.923 93.0 0.108 56.4 0.399 -45.8
14.500 0.600 -110.1 2.861 91.0 0.110 56.4 0.392 -46.8
15.000 0.590 -113.0 2.801 88.9 0.112 56.4 0.386 -47.9
15.500 0.580 -115.9 2.744 87.0 0.114 56.5 0.380 -49.0
16.000 0.572 -118.7 2.688 85.0 0.116 56.6 0.375 -50.1
16.500 0.564 -121.5 2.635 83.1 0.118 56.7 0.369 -51.2
17.000 0.556 -124.2 2.584 81.3 0.120 56.9 0.364 -52.3
17.500 0.549 -126.9 2.535 79.5 0.122 57.1 0.358 -53.4
18.000 0.543 -129.6 2.487 77.7 0.124 57.3 0.353 -54.6
18.500 0.537 -132.3 2.441 75.9 0.126 57.6 0.349 -55.8
19.000 0.532 -134.9 2.397 74.2 0.129 57.8 0.344 -56.9
19.500 0.527 -137.4 2.355 72.5 0.131 58.1 0.339 -58.2
20.000 0.523 -140.0 2.314 70.8 0.133 58.4 0.335 -59.4
20.500 0.519 -142.5 2.274 69.2 0.136 58.7 0.330 -60.7
21.000 0.516 -145.0 2.236 67.5 0.138 58.9 0.326 -62.0
21.500 0.513 -147.4 2.199 65.9 0.141 59.2 0.322 -63.3
22.000 0.511 -149.8 2.164 64.4 0.144 59.5 0.318 -64.7
22.500 0.508 -152.2 2.130 62.8 0.147 59.8 0.314 -66.1
23.000 0.507 -154.6 2.096 61.3 0.150 60.0 0.310 -67.5
23.500 0.506 -156.9 2.064 59.8 0.153 60.3 0.306 -69.0
24.000 0.505 -159.2 2.033 58.3 0.156 60.5 0.303 -70.5
24.500 0.504 -161.4 2.003 56.8 0.159 60.7 0.299 -72.1
25.000 0.504 -163.6 1.974 55.3 0.163 60.9 0.296 -73.7
25.500 0.504 -165.8 1.945 53.9 0.166 61.0 0.293 -75.4
26.000 0.505 -167.9 1.918 52.4 0.170 61.2 0.290 -77.1
